{
  "SerialCommunication": {
    "PortName": "COM3",
    "BaudRate": 9600,
    "DataBits": 8,
    "Parity": "None",
    "StopBits": "One",
    "ReadTimeout": 1000,
    "WriteTimeout": 1000,
    "SlotCommands": {
      "1": "01 05 00 01 FF 00 DD FA",
      "2": "01 05 00 02 FF 00 2D FA",
      "3": "01 05 00 03 FF 00 7C 3A",
      "4": "01 05 00 04 FF 00 CD FB",
      "5": "01 05 00 05 FF 00 9C 3B"
    },
    "StatusCommands": {
    }
  },
  "RemoteApi": {
    "Enabled": false,
    "Port": 5000,
    "AllowedIpAddresses": [
      "192.168.1.100",
      "192.168.1.101"
    ]
  },
  "Logging": {
    "LogLevel": {
      "Default": "Information",
      "Microsoft": "Warning",
      "System": "Warning"
    }
  }
}
